# vsim -cvgperinstance -vopt -voptargs="+acc" -coverage -sva -c -do "log -r /* ; coverage save -onexit mem_cov3; run -all; exit" -wlf wave_file3.wlf -l test3.log -sv_seed random work.top "+UVM_TESTNAME=ahb_wrap_test" 
# Start time: 18:37:31 on Jul 02,2025
# ** Note: (vsim-8009) Loading existing optimized design _opt
# //  Questa Sim
# //  Version 2022.1 linux Jan 29 2022
# //
# //  Copyright 1991-2022 Mentor Graphics Corporation
# //  All Rights Reserved.
# //
# //  QuestaSim and its associated documentation contain trade
# //  secrets and commercial or financial information that are the property of
# //  Mentor Graphics Corporation and are privileged, confidential,
# //  and exempt from disclosure under the Freedom of Information Act,
# //  5 U.S.C. Section 552. Furthermore, this information
# //  is prohibited from disclosure under the Trade Secrets Act,
# //  18 U.S.C. Section 1905.
# //
# Loading sv_std.std
# Loading work.ahb2apb_if(fast)
# Loading mtiUvm.uvm_pkg(fast)
# Loading work.ahb2apb_pkg(fast)
# Loading mtiUvm.questa_uvm_pkg(fast)
# Loading work.top(fast)
# Loading work.ahb2apb_if(fast__2)
# Loading work.ahb2apb_if(fast__3)
# Loading work.rtl_top(fast)
# Loading work.ahb(fast)
# Loading work.apb_controller(fast)
# Loading work.apb(fast)
# Loading /home/cad/eda/Questa-sim/questasim/uvm-1.1d/linux/uvm_dpi.so
# ** Warning: (vsim-8634) Code was not compiled with coverage options.
# Sv_Seed = 3663953665
# log -r /* 
#  coverage save -onexit mem_cov3
#  run -all
# ----------------------------------------------------------------
# UVM-1.1d
# (C) 2007-2013 Mentor Graphics Corporation
# (C) 2007-2013 Cadence Design Systems, Inc.
# (C) 2006-2013 Synopsys, Inc.
# (C) 2011-2013 Cypress Semiconductor Corp.
# ----------------------------------------------------------------
# 
#   ***********       IMPORTANT RELEASE NOTES         ************
# 
#   You are using a version of the UVM library that has been compiled
#   with `UVM_NO_DEPRECATED undefined.
#   See http://www.eda.org/svdb/view.php?id=3313 for more details.
# 
#   You are using a version of the UVM library that has been compiled
#   with `UVM_OBJECT_MUST_HAVE_CONSTRUCTOR undefined.
#   See http://www.eda.org/svdb/view.php?id=3770 for more details.
# 
#       (Specify +UVM_NO_RELNOTES to turn off this notice)
# 
# UVM_INFO verilog_src/questa_uvm_pkg-1.2/src/questa_uvm_pkg.sv(277) @ 0: reporter [Questa UVM] QUESTA_UVM-1.2.3
# UVM_INFO verilog_src/questa_uvm_pkg-1.2/src/questa_uvm_pkg.sv(278) @ 0: reporter [Questa UVM]  questa_uvm::init(+struct)
# UVM_INFO @ 0: reporter [RNTST] Running test ahb_wrap_test...
# UVM_INFO @ 0: reporter [UVMTOP] UVM testbench topology:
# --------------------------------------------------------------------
# Name                         Type                        Size  Value
# --------------------------------------------------------------------
# uvm_test_top                 ahb_wrap_test               -     @476 
#   env                        ahb2apb_env                 -     @492 
#     ahb_agt_top              ahb_agent_top               -     @500 
#       agnth[0]               ahb_agent                   -     @631 
#         drvh                 ahb_driver                  -     @659 
#           rsp_port           uvm_analysis_port           -     @674 
#           seq_item_port      uvm_seq_item_pull_port      -     @666 
#         m_sequencer          ahb_sequencer               -     @682 
#           rsp_export         uvm_analysis_export         -     @689 
#           seq_item_export    uvm_seq_item_pull_imp       -     @783 
#           arbitration_queue  array                       0     -    
#           lock_queue         array                       0     -    
#           num_last_reqs      integral                    32    'd1  
#           num_last_rsps      integral                    32    'd1  
#         monh                 ahb_monitor                 -     @644 
#           monitor_port       uvm_analysis_port           -     @651 
#     apb_agt_top              apb_agent_top               -     @507 
#       agnth[0]               apb_agent                   -     @799 
#         drvh                 apb_driver                  -     @827 
#           rsp_port           uvm_analysis_port           -     @842 
#           seq_item_port      uvm_seq_item_pull_port      -     @834 
#         m_sequencer          apb_sequencer               -     @850 
#           rsp_export         uvm_analysis_export         -     @857 
#           seq_item_export    uvm_seq_item_pull_imp       -     @951 
#           arbitration_queue  array                       0     -    
#           lock_queue         array                       0     -    
#           num_last_reqs      integral                    32    'd1  
#           num_last_rsps      integral                    32    'd1  
#         monh                 apb_monitor                 -     @812 
#           monitor_port       uvm_analysis_port           -     @819 
#     sb                       ahb2apb_scoreboard          -     @623 
#       fifo_ahb[0]            uvm_tlm_analysis_fifo #(T)  -     @967 
#         analysis_export      uvm_analysis_imp            -     @1006
#         get_ap               uvm_analysis_port           -     @998 
#         get_peek_export      uvm_get_peek_imp            -     @982 
#         put_ap               uvm_analysis_port           -     @990 
#         put_export           uvm_put_imp                 -     @974 
#       fifo_apb[0]            uvm_tlm_analysis_fifo #(T)  -     @1014
#         analysis_export      uvm_analysis_imp            -     @1053
#         get_ap               uvm_analysis_port           -     @1045
#         get_peek_export      uvm_get_peek_imp            -     @1029
#         put_ap               uvm_analysis_port           -     @1037
#         put_export           uvm_put_imp                 -     @1021
#     v_sequencer              ahb2apb_virtual_sequencer   -     @514 
#       rsp_export             uvm_analysis_export         -     @521 
#       seq_item_export        uvm_seq_item_pull_imp       -     @615 
#       arbitration_queue      array                       0     -    
#       lock_queue             array                       0     -    
#       num_last_reqs          integral                    32    'd1  
#       num_last_rsps          integral                    32    'd1  
# --------------------------------------------------------------------
# 
# inside DEFAULT state                  10
#                   11 ENTERED:&&
#                   11 ENTERED:&&
#                   11 ENTERED:&&
# UVM_INFO ../AHB_agent/ahb_driver.sv(50) @ 30: uvm_test_top.env.ahb_agt_top.agnth[0].drvh [AHB_DRIVER] printing from driver 
#  -----------------------------------------------------------------------------------------------------
# Name                           Type      Size  Value                                                 
# -----------------------------------------------------------------------------------------------------
# req                            ahb_xtn   -     @1085                                                 
#   begin_time                   time      64    30                                                    
#   depth                        int       32    'd2                                                   
#   parent sequence (name)       string    4     wseq                                                  
#   parent sequence (full name)  string    54    uvm_test_top.env.ahb_agt_top.agnth[0].m_sequencer.wseq
#   sequencer                    string    49    uvm_test_top.env.ahb_agt_top.agnth[0].m_sequencer     
#   Hresetn                      integral  1     'd0                                                   
#   Hwrite                       integral  1     1                                                     
#   Htrans                       integral  2     2                                                     
#   Hburst                       integral  3     'h4                                                   
#   Hsize                        integral  3     'd2                                                   
#   Haddr                        integral  32    'h8c00024c                                            
#   Hwdata                       integral  32    'hfa377015                                            
#   Hrdata                       integral  32    'h0                                                   
#   Hreadyin                     integral  1     'd0                                                   
#   Hreadyout                    integral  1     'd0                                                   
#   length                       integral  10    'h8                                                   
# -----------------------------------------------------------------------------------------------------
# 
#                   31 ENTERED:&&
#                   50 ENTERED:&&
# Width = 32, size 8 bits
#                   70 ENTERED:&&
# -----------------------------------------------------------------------------------------------------
# Name                           Type      Size  Value                                                 
# -----------------------------------------------------------------------------------------------------
# req                            ahb_xtn   -     @1085                                                 
#   begin_time                   time      64    30                                                    
#   depth                        int       32    'd2                                                   
#   parent sequence (name)       string    4     wseq                                                  
#   parent sequence (full name)  string    54    uvm_test_top.env.ahb_agt_top.agnth[0].m_sequencer.wseq
#   sequencer                    string    49    uvm_test_top.env.ahb_agt_top.agnth[0].m_sequencer     
#   Hresetn                      integral  1     'd0                                                   
#   Hwrite                       integral  1     1                                                     
#   Htrans                       integral  2     2                                                     
#   Hburst                       integral  3     'h4                                                   
#   Hsize                        integral  3     'd2                                                   
#   Haddr                        integral  32    'h8c00024c                                            
#   Hwdata                       integral  32    'hfa377015                                            
#   Hrdata                       integral  32    'h0                                                   
#   Hreadyin                     integral  1     'd0                                                   
#   Hreadyout                    integral  1     'd0                                                   
#   length                       integral  10    'h8                                                   
# -----------------------------------------------------------------------------------------------------
# UVM_INFO ../AHB_agent/ahb_driver.sv(75) @ 70: uvm_test_top.env.ahb_agt_top.agnth[0].drvh [ahb_driver] Report : AHB driver sent           1 transactions
# UVM_INFO ../AHB_agent/ahb_monitor.sv(71) @ 70: uvm_test_top.env.ahb_agt_top.agnth[0].monh [ROUTER_WR_MONITOR] printing from monitor 
#  ---------------------------------------
# Name         Type      Size  Value     
# ---------------------------------------
# mon_data     ahb_xtn   -     @1079     
#   Hresetn    integral  1     'd0       
#   Hwrite     integral  1     1         
#   Htrans     integral  2     2         
#   Hburst     integral  3     'h4       
#   Hsize      integral  3     'd2       
#   Haddr      integral  32    'h8c00024c
#   Hwdata     integral  32    'hfa377015
#   Hrdata     integral  32    'h0       
#   Hreadyin   integral  1     'd0       
#   Hreadyout  integral  1     'd0       
#   length     integral  10    'h0       
# ---------------------------------------
# 
# UVM_INFO ../tb/ahb2apb_sb.sv(109) @ 70: uvm_test_top.env.sb [WRITE SB] DATA FROM MASTER SCOREBOARD
# ---------------------------------------
# Name         Type      Size  Value     
# ---------------------------------------
# mon_data     ahb_xtn   -     @1079     
#   Hresetn    integral  1     'd0       
#   Hwrite     integral  1     1         
#   Htrans     integral  2     2         
#   Hburst     integral  3     'h4       
#   Hsize      integral  3     'd2       
#   Haddr      integral  32    'h8c00024c
#   Hwdata     integral  32    'hfa377015
#   Hrdata     integral  32    'h0       
#   Hreadyin   integral  1     'd0       
#   Hreadyout  integral  1     'd0       
#   length     integral  10    'h0       
# ---------------------------------------
# UVM_INFO ../AHB_agent/ahb_driver.sv(50) @ 70: uvm_test_top.env.ahb_agt_top.agnth[0].drvh [AHB_DRIVER] printing from driver 
#  -----------------------------------------------------------------------------------------------------
# Name                           Type      Size  Value                                                 
# -----------------------------------------------------------------------------------------------------
# req                            ahb_xtn   -     @1085                                                 
#   begin_time                   time      64    70                                                    
#   end_time                     time      64    70                                                    
#   depth                        int       32    'd2                                                   
#   parent sequence (name)       string    4     wseq                                                  
#   parent sequence (full name)  string    54    uvm_test_top.env.ahb_agt_top.agnth[0].m_sequencer.wseq
#   sequencer                    string    49    uvm_test_top.env.ahb_agt_top.agnth[0].m_sequencer     
#   Hresetn                      integral  1     'd0                                                   
#   Hwrite                       integral  1     1                                                     
#   Htrans                       integral  2     3                                                     
#   Hburst                       integral  3     'h4                                                   
#   Hsize                        integral  3     'd2                                                   
#   Haddr                        integral  32    'h8c000250                                            
#   Hwdata                       integral  32    'h5714e465                                            
#   Hrdata                       integral  32    'h0                                                   
#   Hreadyin                     integral  1     'd0                                                   
#   Hreadyout                    integral  1     'd0                                                   
#   length                       integral  10    'h8                                                   
# -----------------------------------------------------------------------------------------------------
# 
#                   90 ENTERED:&&
# Width = 32, size 32 bits
#                  110 ENTERED:&&
# UVM_INFO ../AHB_agent/ahb_monitor.sv(71) @ 110: uvm_test_top.env.ahb_agt_top.agnth[0].monh [ROUTER_WR_MONITOR] printing from monitor 
#  ---------------------------------------
# Name         Type      Size  Value     
# ---------------------------------------
# mon_data     ahb_xtn   -     @1161     
#   Hresetn    integral  1     'd0       
#   Hwrite     integral  1     1         
#   Htrans     integral  2     2         
#   Hburst     integral  3     'h4       
#   Hsize      integral  3     'd2       
#   Haddr      integral  32    'h8c00024c
#   Hwdata     integral  32    'hfa377015
#   Hrdata     integral  32    'h0       
#   Hreadyin   integral  1     'd0       
#   Hreadyout  integral  1     'd0       
#   length     integral  10    'h0       
# ---------------------------------------
# 
# UVM_INFO ../tb/ahb2apb_sb.sv(109) @ 110: uvm_test_top.env.sb [WRITE SB] DATA FROM MASTER SCOREBOARD
# ---------------------------------------
# Name         Type      Size  Value     
# ---------------------------------------
# mon_data     ahb_xtn   -     @1161     
#   Hresetn    integral  1     'd0       
#   Hwrite     integral  1     1         
#   Htrans     integral  2     2         
#   Hburst     integral  3     'h4       
#   Hsize      integral  3     'd2       
#   Haddr      integral  32    'h8c00024c
#   Hwdata     integral  32    'hfa377015
#   Hrdata     integral  32    'h0       
#   Hreadyin   integral  1     'd0       
#   Hreadyout  integral  1     'd0       
#   length     integral  10    'h0       
# ---------------------------------------
#                  130 ENTERED:&&
# UVM_INFO ../APB_agent/apb_monitor.sv(80) @ 130: uvm_test_top.env.apb_agt_top.agnth[0].monh [ROUTER_RD_MONITOR] printing from monitor 
#  -------------------------------------
# Name       Type      Size  Value     
# -------------------------------------
# mon_data   apb_xtn   -     @1073     
#   Paddr    integral  32    'h8c00024c
#   Penable  integral  1     'd0       
#   Pwrite   integral  1     1         
#   Pselx    integral  4     8         
#   Prdata   integral  32    'h0       
#   Pwdata   integral  32    'hfa377015
# -------------------------------------
# 
# -----------------------------------------------------------------------------------------------------
# Name                           Type      Size  Value                                                 
# -----------------------------------------------------------------------------------------------------
# req                            ahb_xtn   -     @1085                                                 
#   begin_time                   time      64    70                                                    
#   end_time                     time      64    70                                                    
#   depth                        int       32    'd2                                                   
#   parent sequence (name)       string    4     wseq                                                  
#   parent sequence (full name)  string    54    uvm_test_top.env.ahb_agt_top.agnth[0].m_sequencer.wseq
#   sequencer                    string    49    uvm_test_top.env.ahb_agt_top.agnth[0].m_sequencer     
#   Hresetn                      integral  1     'd0                                                   
#   Hwrite                       integral  1     1                                                     
#   Htrans                       integral  2     3                                                     
#   Hburst                       integral  3     'h4                                                   
#   Hsize                        integral  3     'd2                                                   
#   Haddr                        integral  32    'h8c000250                                            
#   Hwdata                       integral  32    'h5714e465                                            
#   Hrdata                       integral  32    'h0                                                   
#   Hreadyin                     integral  1     'd0                                                   
#   Hreadyout                    integral  1     'd0                                                   
#   length                       integral  10    'h8                                                   
# -----------------------------------------------------------------------------------------------------
# UVM_INFO ../AHB_agent/ahb_driver.sv(75) @ 130: uvm_test_top.env.ahb_agt_top.agnth[0].drvh [ahb_driver] Report : AHB driver sent           2 transactions
# UVM_INFO ../tb/ahb2apb_sb.sv(121) @ 130: uvm_test_top.env.sb [DATA FROM SLAVE SCORBOARD] read data
# -------------------------------------
# Name       Type      Size  Value     
# -------------------------------------
# mon_data   apb_xtn   -     @1073     
#   Paddr    integral  32    'h8c00024c
#   Penable  integral  1     'd0       
#   Pwrite   integral  1     1         
#   Pselx    integral  4     8         
#   Prdata   integral  32    'h0       
#   Pwdata   integral  32    'hfa377015
# -------------------------------------
# i am in scorrboard
# UVM_INFO ../tb/ahb2apb_sb.sv(189) @ 130: uvm_test_top.env.sb [SB] ADDR MATCHED SUCCESSFULLY
# UVM_INFO ../tb/ahb2apb_sb.sv(196) @ 130: uvm_test_top.env.sb [SB] WRITE DATA MATCHED SUCCESSFULLY
# UVM_INFO ../AHB_agent/ahb_driver.sv(50) @ 130: uvm_test_top.env.ahb_agt_top.agnth[0].drvh [AHB_DRIVER] printing from driver 
#  -----------------------------------------------------------------------------------------------------
# Name                           Type      Size  Value                                                 
# -----------------------------------------------------------------------------------------------------
# req                            ahb_xtn   -     @1085                                                 
#   begin_time                   time      64    130                                                   
#   end_time                     time      64    130                                                   
#   depth                        int       32    'd2                                                   
#   parent sequence (name)       string    4     wseq                                                  
#   parent sequence (full name)  string    54    uvm_test_top.env.ahb_agt_top.agnth[0].m_sequencer.wseq
#   sequencer                    string    49    uvm_test_top.env.ahb_agt_top.agnth[0].m_sequencer     
#   Hresetn                      integral  1     'd0                                                   
#   Hwrite                       integral  1     1                                                     
#   Htrans                       integral  2     3                                                     
#   Hburst                       integral  3     'h4                                                   
#   Hsize                        integral  3     'd2                                                   
#   Haddr                        integral  32    'h8c000254                                            
#   Hwdata                       integral  32    'h945dd73c                                            
#   Hrdata                       integral  32    'h0                                                   
#   Hreadyin                     integral  1     'd0                                                   
#   Hreadyout                    integral  1     'd0                                                   
#   length                       integral  10    'h8                                                   
# -----------------------------------------------------------------------------------------------------
# 
# Width = 32, size 32 bits
#                  150 ENTERED:&&
# UVM_INFO ../AHB_agent/ahb_monitor.sv(71) @ 150: uvm_test_top.env.ahb_agt_top.agnth[0].monh [ROUTER_WR_MONITOR] printing from monitor 
#  ---------------------------------------
# Name         Type      Size  Value     
# ---------------------------------------
# mon_data     ahb_xtn   -     @1166     
#   Hresetn    integral  1     'd0       
#   Hwrite     integral  1     1         
#   Htrans     integral  2     3         
#   Hburst     integral  3     'h4       
#   Hsize      integral  3     'd2       
#   Haddr      integral  32    'h8c000250
#   Hwdata     integral  32    'h5714e465
#   Hrdata     integral  32    'h0       
#   Hreadyin   integral  1     'd0       
#   Hreadyout  integral  1     'd0       
#   length     integral  10    'h0       
# ---------------------------------------
# 
# UVM_INFO ../tb/ahb2apb_sb.sv(109) @ 150: uvm_test_top.env.sb [WRITE SB] DATA FROM MASTER SCOREBOARD
# ---------------------------------------
# Name         Type      Size  Value     
# ---------------------------------------
# mon_data     ahb_xtn   -     @1166     
#   Hresetn    integral  1     'd0       
#   Hwrite     integral  1     1         
#   Htrans     integral  2     3         
#   Hburst     integral  3     'h4       
#   Hsize      integral  3     'd2       
#   Haddr      integral  32    'h8c000250
#   Hwdata     integral  32    'h5714e465
#   Hrdata     integral  32    'h0       
#   Hreadyin   integral  1     'd0       
#   Hreadyout  integral  1     'd0       
#   length     integral  10    'h0       
# ---------------------------------------
#                  170 ENTERED:&&
# UVM_INFO ../APB_agent/apb_monitor.sv(80) @ 170: uvm_test_top.env.apb_agt_top.agnth[0].monh [ROUTER_RD_MONITOR] printing from monitor 
#  -------------------------------------
# Name       Type      Size  Value     
# -------------------------------------
# mon_data   apb_xtn   -     @1170     
#   Paddr    integral  32    'h8c000250
#   Penable  integral  1     'd0       
#   Pwrite   integral  1     1         
#   Pselx    integral  4     8         
#   Prdata   integral  32    'h0       
#   Pwdata   integral  32    'hfa377015
# -------------------------------------
# 
# UVM_INFO ../tb/ahb2apb_sb.sv(121) @ 170: uvm_test_top.env.sb [DATA FROM SLAVE SCORBOARD] read data
# -------------------------------------
# Name       Type      Size  Value     
# -------------------------------------
# mon_data   apb_xtn   -     @1170     
#   Paddr    integral  32    'h8c000250
#   Penable  integral  1     'd0       
#   Pwrite   integral  1     1         
#   Pselx    integral  4     8         
#   Prdata   integral  32    'h0       
#   Pwdata   integral  32    'hfa377015
# -------------------------------------
# i am in scorrboard
# UVM_INFO ../tb/ahb2apb_sb.sv(189) @ 170: uvm_test_top.env.sb [SB] ADDR MATCHED SUCCESSFULLY
# UVM_ERROR ../tb/ahb2apb_sb.sv(198) @ 170: uvm_test_top.env.sb [SB] WRITE DATA MATCHING FAILED
# Width = 32, size 32 bits
#                  190 ENTERED:&&
# UVM_INFO ../AHB_agent/ahb_monitor.sv(71) @ 190: uvm_test_top.env.ahb_agt_top.agnth[0].monh [ROUTER_WR_MONITOR] printing from monitor 
#  ---------------------------------------
# Name         Type      Size  Value     
# ---------------------------------------
# mon_data     ahb_xtn   -     @1174     
#   Hresetn    integral  1     'd0       
#   Hwrite     integral  1     1         
#   Htrans     integral  2     3         
#   Hburst     integral  3     'h4       
#   Hsize      integral  3     'd2       
#   Haddr      integral  32    'h8c000250
#   Hwdata     integral  32    'h5714e465
#   Hrdata     integral  32    'h0       
#   Hreadyin   integral  1     'd0       
#   Hreadyout  integral  1     'd0       
#   length     integral  10    'h0       
# ---------------------------------------
# 
# UVM_INFO ../tb/ahb2apb_sb.sv(109) @ 190: uvm_test_top.env.sb [WRITE SB] DATA FROM MASTER SCOREBOARD
# ---------------------------------------
# Name         Type      Size  Value     
# ---------------------------------------
# mon_data     ahb_xtn   -     @1174     
#   Hresetn    integral  1     'd0       
#   Hwrite     integral  1     1         
#   Htrans     integral  2     3         
#   Hburst     integral  3     'h4       
#   Hsize      integral  3     'd2       
#   Haddr      integral  32    'h8c000250
#   Hwdata     integral  32    'h5714e465
#   Hrdata     integral  32    'h0       
#   Hreadyin   integral  1     'd0       
#   Hreadyout  integral  1     'd0       
#   length     integral  10    'h0       
# ---------------------------------------
#                  210 ENTERED:&&
# UVM_INFO ../APB_agent/apb_monitor.sv(80) @ 210: uvm_test_top.env.apb_agt_top.agnth[0].monh [ROUTER_RD_MONITOR] printing from monitor 
#  -------------------------------------
# Name       Type      Size  Value     
# -------------------------------------
# mon_data   apb_xtn   -     @1178     
#   Paddr    integral  32    'h8c000250
#   Penable  integral  1     'd0       
#   Pwrite   integral  1     1         
#   Pselx    integral  4     8         
#   Prdata   integral  32    'h0       
#   Pwdata   integral  32    'h5714e465
# -------------------------------------
# 
# -----------------------------------------------------------------------------------------------------
# Name                           Type      Size  Value                                                 
# -----------------------------------------------------------------------------------------------------
# req                            ahb_xtn   -     @1085                                                 
#   begin_time                   time      64    130                                                   
#   end_time                     time      64    130                                                   
#   depth                        int       32    'd2                                                   
#   parent sequence (name)       string    4     wseq                                                  
#   parent sequence (full name)  string    54    uvm_test_top.env.ahb_agt_top.agnth[0].m_sequencer.wseq
#   sequencer                    string    49    uvm_test_top.env.ahb_agt_top.agnth[0].m_sequencer     
#   Hresetn                      integral  1     'd0                                                   
#   Hwrite                       integral  1     1                                                     
#   Htrans                       integral  2     3                                                     
#   Hburst                       integral  3     'h4                                                   
#   Hsize                        integral  3     'd2                                                   
#   Haddr                        integral  32    'h8c000254                                            
#   Hwdata                       integral  32    'h945dd73c                                            
#   Hrdata                       integral  32    'h0                                                   
#   Hreadyin                     integral  1     'd0                                                   
#   Hreadyout                    integral  1     'd0                                                   
#   length                       integral  10    'h8                                                   
# -----------------------------------------------------------------------------------------------------
# UVM_INFO ../AHB_agent/ahb_driver.sv(75) @ 210: uvm_test_top.env.ahb_agt_top.agnth[0].drvh [ahb_driver] Report : AHB driver sent           3 transactions
# UVM_INFO ../tb/ahb2apb_sb.sv(121) @ 210: uvm_test_top.env.sb [DATA FROM SLAVE SCORBOARD] read data
# -------------------------------------
# Name       Type      Size  Value     
# -------------------------------------
# mon_data   apb_xtn   -     @1178     
#   Paddr    integral  32    'h8c000250
#   Penable  integral  1     'd0       
#   Pwrite   integral  1     1         
#   Pselx    integral  4     8         
#   Prdata   integral  32    'h0       
#   Pwdata   integral  32    'h5714e465
# -------------------------------------
# i am in scorrboard
# UVM_INFO ../tb/ahb2apb_sb.sv(189) @ 210: uvm_test_top.env.sb [SB] ADDR MATCHED SUCCESSFULLY
# UVM_INFO ../tb/ahb2apb_sb.sv(196) @ 210: uvm_test_top.env.sb [SB] WRITE DATA MATCHED SUCCESSFULLY
# UVM_INFO ../AHB_agent/ahb_driver.sv(50) @ 210: uvm_test_top.env.ahb_agt_top.agnth[0].drvh [AHB_DRIVER] printing from driver 
#  -----------------------------------------------------------------------------------------------------
# Name                           Type      Size  Value                                                 
# -----------------------------------------------------------------------------------------------------
# req                            ahb_xtn   -     @1085                                                 
#   begin_time                   time      64    210                                                   
#   end_time                     time      64    210                                                   
#   depth                        int       32    'd2                                                   
#   parent sequence (name)       string    4     wseq                                                  
#   parent sequence (full name)  string    54    uvm_test_top.env.ahb_agt_top.agnth[0].m_sequencer.wseq
#   sequencer                    string    49    uvm_test_top.env.ahb_agt_top.agnth[0].m_sequencer     
#   Hresetn                      integral  1     'd0                                                   
#   Hwrite                       integral  1     1                                                     
#   Htrans                       integral  2     3                                                     
#   Hburst                       integral  3     'h4                                                   
#   Hsize                        integral  3     'd2                                                   
#   Haddr                        integral  32    'h8c000258                                            
#   Hwdata                       integral  32    'hb87faba1                                            
#   Hrdata                       integral  32    'h0                                                   
#   Hreadyin                     integral  1     'd0                                                   
#   Hreadyout                    integral  1     'd0                                                   
#   length                       integral  10    'h8                                                   
# -----------------------------------------------------------------------------------------------------
# 
# Width = 32, size 32 bits
#                  230 ENTERED:&&
# UVM_INFO ../AHB_agent/ahb_monitor.sv(71) @ 230: uvm_test_top.env.ahb_agt_top.agnth[0].monh [ROUTER_WR_MONITOR] printing from monitor 
#  ---------------------------------------
# Name         Type      Size  Value     
# ---------------------------------------
# mon_data     ahb_xtn   -     @1182     
#   Hresetn    integral  1     'd0       
#   Hwrite     integral  1     1         
#   Htrans     integral  2     3         
#   Hburst     integral  3     'h4       
#   Hsize      integral  3     'd2       
#   Haddr      integral  32    'h8c000254
#   Hwdata     integral  32    'h945dd73c
#   Hrdata     integral  32    'h0       
#   Hreadyin   integral  1     'd0       
#   Hreadyout  integral  1     'd0       
#   length     integral  10    'h0       
# ---------------------------------------
# 
# UVM_INFO ../tb/ahb2apb_sb.sv(109) @ 230: uvm_test_top.env.sb [WRITE SB] DATA FROM MASTER SCOREBOARD
# ---------------------------------------
# Name         Type      Size  Value     
# ---------------------------------------
# mon_data     ahb_xtn   -     @1182     
#   Hresetn    integral  1     'd0       
#   Hwrite     integral  1     1         
#   Htrans     integral  2     3         
#   Hburst     integral  3     'h4       
#   Hsize      integral  3     'd2       
#   Haddr      integral  32    'h8c000254
#   Hwdata     integral  32    'h945dd73c
#   Hrdata     integral  32    'h0       
#   Hreadyin   integral  1     'd0       
#   Hreadyout  integral  1     'd0       
#   length     integral  10    'h0       
# ---------------------------------------
#                  250 ENTERED:&&
# UVM_INFO ../APB_agent/apb_monitor.sv(80) @ 250: uvm_test_top.env.apb_agt_top.agnth[0].monh [ROUTER_RD_MONITOR] printing from monitor 
#  -------------------------------------
# Name       Type      Size  Value     
# -------------------------------------
# mon_data   apb_xtn   -     @1186     
#   Paddr    integral  32    'h8c000254
#   Penable  integral  1     'd0       
#   Pwrite   integral  1     1         
#   Pselx    integral  4     8         
#   Prdata   integral  32    'h0       
#   Pwdata   integral  32    'h5714e465
# -------------------------------------
# 
# UVM_INFO ../tb/ahb2apb_sb.sv(121) @ 250: uvm_test_top.env.sb [DATA FROM SLAVE SCORBOARD] read data
# -------------------------------------
# Name       Type      Size  Value     
# -------------------------------------
# mon_data   apb_xtn   -     @1186     
#   Paddr    integral  32    'h8c000254
#   Penable  integral  1     'd0       
#   Pwrite   integral  1     1         
#   Pselx    integral  4     8         
#   Prdata   integral  32    'h0       
#   Pwdata   integral  32    'h5714e465
# -------------------------------------
# i am in scorrboard
# UVM_INFO ../tb/ahb2apb_sb.sv(189) @ 250: uvm_test_top.env.sb [SB] ADDR MATCHED SUCCESSFULLY
# UVM_ERROR ../tb/ahb2apb_sb.sv(198) @ 250: uvm_test_top.env.sb [SB] WRITE DATA MATCHING FAILED
# Width = 32, size 32 bits
#                  270 ENTERED:&&
# UVM_INFO ../AHB_agent/ahb_monitor.sv(71) @ 270: uvm_test_top.env.ahb_agt_top.agnth[0].monh [ROUTER_WR_MONITOR] printing from monitor 
#  ---------------------------------------
# Name         Type      Size  Value     
# ---------------------------------------
# mon_data     ahb_xtn   -     @1190     
#   Hresetn    integral  1     'd0       
#   Hwrite     integral  1     1         
#   Htrans     integral  2     3         
#   Hburst     integral  3     'h4       
#   Hsize      integral  3     'd2       
#   Haddr      integral  32    'h8c000254
#   Hwdata     integral  32    'h945dd73c
#   Hrdata     integral  32    'h0       
#   Hreadyin   integral  1     'd0       
#   Hreadyout  integral  1     'd0       
#   length     integral  10    'h0       
# ---------------------------------------
# 
# UVM_INFO ../tb/ahb2apb_sb.sv(109) @ 270: uvm_test_top.env.sb [WRITE SB] DATA FROM MASTER SCOREBOARD
# ---------------------------------------
# Name         Type      Size  Value     
# ---------------------------------------
# mon_data     ahb_xtn   -     @1190     
#   Hresetn    integral  1     'd0       
#   Hwrite     integral  1     1         
#   Htrans     integral  2     3         
#   Hburst     integral  3     'h4       
#   Hsize      integral  3     'd2       
#   Haddr      integral  32    'h8c000254
#   Hwdata     integral  32    'h945dd73c
#   Hrdata     integral  32    'h0       
#   Hreadyin   integral  1     'd0       
#   Hreadyout  integral  1     'd0       
#   length     integral  10    'h0       
# ---------------------------------------
#                  290 ENTERED:&&
# UVM_INFO ../APB_agent/apb_monitor.sv(80) @ 290: uvm_test_top.env.apb_agt_top.agnth[0].monh [ROUTER_RD_MONITOR] printing from monitor 
#  -------------------------------------
# Name       Type      Size  Value     
# -------------------------------------
# mon_data   apb_xtn   -     @1194     
#   Paddr    integral  32    'h8c000254
#   Penable  integral  1     'd0       
#   Pwrite   integral  1     1         
#   Pselx    integral  4     8         
#   Prdata   integral  32    'h0       
#   Pwdata   integral  32    'h945dd73c
# -------------------------------------
# 
# -----------------------------------------------------------------------------------------------------
# Name                           Type      Size  Value                                                 
# -----------------------------------------------------------------------------------------------------
# req                            ahb_xtn   -     @1085                                                 
#   begin_time                   time      64    210                                                   
#   end_time                     time      64    210                                                   
#   depth                        int       32    'd2                                                   
#   parent sequence (name)       string    4     wseq                                                  
#   parent sequence (full name)  string    54    uvm_test_top.env.ahb_agt_top.agnth[0].m_sequencer.wseq
#   sequencer                    string    49    uvm_test_top.env.ahb_agt_top.agnth[0].m_sequencer     
#   Hresetn                      integral  1     'd0                                                   
#   Hwrite                       integral  1     1                                                     
#   Htrans                       integral  2     3                                                     
#   Hburst                       integral  3     'h4                                                   
#   Hsize                        integral  3     'd2                                                   
#   Haddr                        integral  32    'h8c000258                                            
#   Hwdata                       integral  32    'hb87faba1                                            
#   Hrdata                       integral  32    'h0                                                   
#   Hreadyin                     integral  1     'd0                                                   
#   Hreadyout                    integral  1     'd0                                                   
#   length                       integral  10    'h8                                                   
# -----------------------------------------------------------------------------------------------------
# UVM_INFO ../AHB_agent/ahb_driver.sv(75) @ 290: uvm_test_top.env.ahb_agt_top.agnth[0].drvh [ahb_driver] Report : AHB driver sent           4 transactions
# UVM_INFO ../tb/ahb2apb_sb.sv(121) @ 290: uvm_test_top.env.sb [DATA FROM SLAVE SCORBOARD] read data
# -------------------------------------
# Name       Type      Size  Value     
# -------------------------------------
# mon_data   apb_xtn   -     @1194     
#   Paddr    integral  32    'h8c000254
#   Penable  integral  1     'd0       
#   Pwrite   integral  1     1         
#   Pselx    integral  4     8         
#   Prdata   integral  32    'h0       
#   Pwdata   integral  32    'h945dd73c
# -------------------------------------
# i am in scorrboard
# UVM_INFO ../tb/ahb2apb_sb.sv(189) @ 290: uvm_test_top.env.sb [SB] ADDR MATCHED SUCCESSFULLY
# UVM_INFO ../tb/ahb2apb_sb.sv(196) @ 290: uvm_test_top.env.sb [SB] WRITE DATA MATCHED SUCCESSFULLY
# UVM_INFO ../AHB_agent/ahb_driver.sv(50) @ 290: uvm_test_top.env.ahb_agt_top.agnth[0].drvh [AHB_DRIVER] printing from driver 
#  -----------------------------------------------------------------------------------------------------
# Name                           Type      Size  Value                                                 
# -----------------------------------------------------------------------------------------------------
# req                            ahb_xtn   -     @1085                                                 
#   begin_time                   time      64    290                                                   
#   end_time                     time      64    290                                                   
#   depth                        int       32    'd2                                                   
#   parent sequence (name)       string    4     wseq                                                  
#   parent sequence (full name)  string    54    uvm_test_top.env.ahb_agt_top.agnth[0].m_sequencer.wseq
#   sequencer                    string    49    uvm_test_top.env.ahb_agt_top.agnth[0].m_sequencer     
#   Hresetn                      integral  1     'd0                                                   
#   Hwrite                       integral  1     1                                                     
#   Htrans                       integral  2     3                                                     
#   Hburst                       integral  3     'h4                                                   
#   Hsize                        integral  3     'd2                                                   
#   Haddr                        integral  32    'h8c00025c                                            
#   Hwdata                       integral  32    'h4dc1075                                             
#   Hrdata                       integral  32    'h0                                                   
#   Hreadyin                     integral  1     'd0                                                   
#   Hreadyout                    integral  1     'd0                                                   
#   length                       integral  10    'h8                                                   
# -----------------------------------------------------------------------------------------------------
# 
# Width = 32, size 32 bits
#                  310 ENTERED:&&
# UVM_INFO ../AHB_agent/ahb_monitor.sv(71) @ 310: uvm_test_top.env.ahb_agt_top.agnth[0].monh [ROUTER_WR_MONITOR] printing from monitor 
#  ---------------------------------------
# Name         Type      Size  Value     
# ---------------------------------------
# mon_data     ahb_xtn   -     @1198     
#   Hresetn    integral  1     'd0       
#   Hwrite     integral  1     1         
#   Htrans     integral  2     3         
#   Hburst     integral  3     'h4       
#   Hsize      integral  3     'd2       
#   Haddr      integral  32    'h8c000258
#   Hwdata     integral  32    'hb87faba1
#   Hrdata     integral  32    'h0       
#   Hreadyin   integral  1     'd0       
#   Hreadyout  integral  1     'd0       
#   length     integral  10    'h0       
# ---------------------------------------
# 
# UVM_INFO ../tb/ahb2apb_sb.sv(109) @ 310: uvm_test_top.env.sb [WRITE SB] DATA FROM MASTER SCOREBOARD
# ---------------------------------------
# Name         Type      Size  Value     
# ---------------------------------------
# mon_data     ahb_xtn   -     @1198     
#   Hresetn    integral  1     'd0       
#   Hwrite     integral  1     1         
#   Htrans     integral  2     3         
#   Hburst     integral  3     'h4       
#   Hsize      integral  3     'd2       
#   Haddr      integral  32    'h8c000258
#   Hwdata     integral  32    'hb87faba1
#   Hrdata     integral  32    'h0       
#   Hreadyin   integral  1     'd0       
#   Hreadyout  integral  1     'd0       
#   length     integral  10    'h0       
# ---------------------------------------
#                  330 ENTERED:&&
# UVM_INFO ../APB_agent/apb_monitor.sv(80) @ 330: uvm_test_top.env.apb_agt_top.agnth[0].monh [ROUTER_RD_MONITOR] printing from monitor 
#  -------------------------------------
# Name       Type      Size  Value     
# -------------------------------------
# mon_data   apb_xtn   -     @1202     
#   Paddr    integral  32    'h8c000258
#   Penable  integral  1     'd0       
#   Pwrite   integral  1     1         
#   Pselx    integral  4     8         
#   Prdata   integral  32    'h0       
#   Pwdata   integral  32    'h945dd73c
# -------------------------------------
# 
# UVM_INFO ../tb/ahb2apb_sb.sv(121) @ 330: uvm_test_top.env.sb [DATA FROM SLAVE SCORBOARD] read data
# -------------------------------------
# Name       Type      Size  Value     
# -------------------------------------
# mon_data   apb_xtn   -     @1202     
#   Paddr    integral  32    'h8c000258
#   Penable  integral  1     'd0       
#   Pwrite   integral  1     1         
#   Pselx    integral  4     8         
#   Prdata   integral  32    'h0       
#   Pwdata   integral  32    'h945dd73c
# -------------------------------------
# i am in scorrboard
# UVM_INFO ../tb/ahb2apb_sb.sv(189) @ 330: uvm_test_top.env.sb [SB] ADDR MATCHED SUCCESSFULLY
# UVM_ERROR ../tb/ahb2apb_sb.sv(198) @ 330: uvm_test_top.env.sb [SB] WRITE DATA MATCHING FAILED
# Width = 32, size 32 bits
#                  350 ENTERED:&&
# UVM_INFO ../AHB_agent/ahb_monitor.sv(71) @ 350: uvm_test_top.env.ahb_agt_top.agnth[0].monh [ROUTER_WR_MONITOR] printing from monitor 
#  ---------------------------------------
# Name         Type      Size  Value     
# ---------------------------------------
# mon_data     ahb_xtn   -     @1206     
#   Hresetn    integral  1     'd0       
#   Hwrite     integral  1     1         
#   Htrans     integral  2     3         
#   Hburst     integral  3     'h4       
#   Hsize      integral  3     'd2       
#   Haddr      integral  32    'h8c000258
#   Hwdata     integral  32    'hb87faba1
#   Hrdata     integral  32    'h0       
#   Hreadyin   integral  1     'd0       
#   Hreadyout  integral  1     'd0       
#   length     integral  10    'h0       
# ---------------------------------------
# 
# UVM_INFO ../tb/ahb2apb_sb.sv(109) @ 350: uvm_test_top.env.sb [WRITE SB] DATA FROM MASTER SCOREBOARD
# ---------------------------------------
# Name         Type      Size  Value     
# ---------------------------------------
# mon_data     ahb_xtn   -     @1206     
#   Hresetn    integral  1     'd0       
#   Hwrite     integral  1     1         
#   Htrans     integral  2     3         
#   Hburst     integral  3     'h4       
#   Hsize      integral  3     'd2       
#   Haddr      integral  32    'h8c000258
#   Hwdata     integral  32    'hb87faba1
#   Hrdata     integral  32    'h0       
#   Hreadyin   integral  1     'd0       
#   Hreadyout  integral  1     'd0       
#   length     integral  10    'h0       
# ---------------------------------------
#                  370 ENTERED:&&
# UVM_INFO ../APB_agent/apb_monitor.sv(80) @ 370: uvm_test_top.env.apb_agt_top.agnth[0].monh [ROUTER_RD_MONITOR] printing from monitor 
#  -------------------------------------
# Name       Type      Size  Value     
# -------------------------------------
# mon_data   apb_xtn   -     @1210     
#   Paddr    integral  32    'h8c000258
#   Penable  integral  1     'd0       
#   Pwrite   integral  1     1         
#   Pselx    integral  4     8         
#   Prdata   integral  32    'h0       
#   Pwdata   integral  32    'hb87faba1
# -------------------------------------
# 
# -----------------------------------------------------------------------------------------------------
# Name                           Type      Size  Value                                                 
# -----------------------------------------------------------------------------------------------------
# req                            ahb_xtn   -     @1085                                                 
#   begin_time                   time      64    290                                                   
#   end_time                     time      64    290                                                   
#   depth                        int       32    'd2                                                   
#   parent sequence (name)       string    4     wseq                                                  
#   parent sequence (full name)  string    54    uvm_test_top.env.ahb_agt_top.agnth[0].m_sequencer.wseq
#   sequencer                    string    49    uvm_test_top.env.ahb_agt_top.agnth[0].m_sequencer     
#   Hresetn                      integral  1     'd0                                                   
#   Hwrite                       integral  1     1                                                     
#   Htrans                       integral  2     3                                                     
#   Hburst                       integral  3     'h4                                                   
#   Hsize                        integral  3     'd2                                                   
#   Haddr                        integral  32    'h8c00025c                                            
#   Hwdata                       integral  32    'h4dc1075                                             
#   Hrdata                       integral  32    'h0                                                   
#   Hreadyin                     integral  1     'd0                                                   
#   Hreadyout                    integral  1     'd0                                                   
#   length                       integral  10    'h8                                                   
# -----------------------------------------------------------------------------------------------------
# UVM_INFO ../AHB_agent/ahb_driver.sv(75) @ 370: uvm_test_top.env.ahb_agt_top.agnth[0].drvh [ahb_driver] Report : AHB driver sent           5 transactions
# UVM_INFO ../tb/ahb2apb_sb.sv(121) @ 370: uvm_test_top.env.sb [DATA FROM SLAVE SCORBOARD] read data
# -------------------------------------
# Name       Type      Size  Value     
# -------------------------------------
# mon_data   apb_xtn   -     @1210     
#   Paddr    integral  32    'h8c000258
#   Penable  integral  1     'd0       
#   Pwrite   integral  1     1         
#   Pselx    integral  4     8         
#   Prdata   integral  32    'h0       
#   Pwdata   integral  32    'hb87faba1
# -------------------------------------
# i am in scorrboard
# UVM_INFO ../tb/ahb2apb_sb.sv(189) @ 370: uvm_test_top.env.sb [SB] ADDR MATCHED SUCCESSFULLY
# UVM_INFO ../tb/ahb2apb_sb.sv(196) @ 370: uvm_test_top.env.sb [SB] WRITE DATA MATCHED SUCCESSFULLY
# UVM_INFO ../AHB_agent/ahb_driver.sv(50) @ 370: uvm_test_top.env.ahb_agt_top.agnth[0].drvh [AHB_DRIVER] printing from driver 
#  -----------------------------------------------------------------------------------------------------
# Name                           Type      Size  Value                                                 
# -----------------------------------------------------------------------------------------------------
# req                            ahb_xtn   -     @1085                                                 
#   begin_time                   time      64    370                                                   
#   end_time                     time      64    370                                                   
#   depth                        int       32    'd2                                                   
#   parent sequence (name)       string    4     wseq                                                  
#   parent sequence (full name)  string    54    uvm_test_top.env.ahb_agt_top.agnth[0].m_sequencer.wseq
#   sequencer                    string    49    uvm_test_top.env.ahb_agt_top.agnth[0].m_sequencer     
#   Hresetn                      integral  1     'd0                                                   
#   Hwrite                       integral  1     1                                                     
#   Htrans                       integral  2     3                                                     
#   Hburst                       integral  3     'h4                                                   
#   Hsize                        integral  3     'd2                                                   
#   Haddr                        integral  32    'h8c000240                                            
#   Hwdata                       integral  32    'h8e82d869                                            
#   Hrdata                       integral  32    'h0                                                   
#   Hreadyin                     integral  1     'd0                                                   
#   Hreadyout                    integral  1     'd0                                                   
#   length                       integral  10    'h8                                                   
# -----------------------------------------------------------------------------------------------------
# 
# Width = 32, size 32 bits
#                  390 ENTERED:&&
# UVM_INFO ../AHB_agent/ahb_monitor.sv(71) @ 390: uvm_test_top.env.ahb_agt_top.agnth[0].monh [ROUTER_WR_MONITOR] printing from monitor 
#  ---------------------------------------
# Name         Type      Size  Value     
# ---------------------------------------
# mon_data     ahb_xtn   -     @1214     
#   Hresetn    integral  1     'd0       
#   Hwrite     integral  1     1         
#   Htrans     integral  2     3         
#   Hburst     integral  3     'h4       
#   Hsize      integral  3     'd2       
#   Haddr      integral  32    'h8c00025c
#   Hwdata     integral  32    'h4dc1075 
#   Hrdata     integral  32    'h0       
#   Hreadyin   integral  1     'd0       
#   Hreadyout  integral  1     'd0       
#   length     integral  10    'h0       
# ---------------------------------------
# 
# UVM_INFO ../tb/ahb2apb_sb.sv(109) @ 390: uvm_test_top.env.sb [WRITE SB] DATA FROM MASTER SCOREBOARD
# ---------------------------------------
# Name         Type      Size  Value     
# ---------------------------------------
# mon_data     ahb_xtn   -     @1214     
#   Hresetn    integral  1     'd0       
#   Hwrite     integral  1     1         
#   Htrans     integral  2     3         
#   Hburst     integral  3     'h4       
#   Hsize      integral  3     'd2       
#   Haddr      integral  32    'h8c00025c
#   Hwdata     integral  32    'h4dc1075 
#   Hrdata     integral  32    'h0       
#   Hreadyin   integral  1     'd0       
#   Hreadyout  integral  1     'd0       
#   length     integral  10    'h0       
# ---------------------------------------
#                  410 ENTERED:&&
# UVM_INFO ../APB_agent/apb_monitor.sv(80) @ 410: uvm_test_top.env.apb_agt_top.agnth[0].monh [ROUTER_RD_MONITOR] printing from monitor 
#  -------------------------------------
# Name       Type      Size  Value     
# -------------------------------------
# mon_data   apb_xtn   -     @1218     
#   Paddr    integral  32    'h8c00025c
#   Penable  integral  1     'd0       
#   Pwrite   integral  1     1         
#   Pselx    integral  4     8         
#   Prdata   integral  32    'h0       
#   Pwdata   integral  32    'hb87faba1
# -------------------------------------
# 
# UVM_INFO ../tb/ahb2apb_sb.sv(121) @ 410: uvm_test_top.env.sb [DATA FROM SLAVE SCORBOARD] read data
# -------------------------------------
# Name       Type      Size  Value     
# -------------------------------------
# mon_data   apb_xtn   -     @1218     
#   Paddr    integral  32    'h8c00025c
#   Penable  integral  1     'd0       
#   Pwrite   integral  1     1         
#   Pselx    integral  4     8         
#   Prdata   integral  32    'h0       
#   Pwdata   integral  32    'hb87faba1
# -------------------------------------
# i am in scorrboard
# UVM_INFO ../tb/ahb2apb_sb.sv(189) @ 410: uvm_test_top.env.sb [SB] ADDR MATCHED SUCCESSFULLY
# UVM_ERROR ../tb/ahb2apb_sb.sv(198) @ 410: uvm_test_top.env.sb [SB] WRITE DATA MATCHING FAILED
# Width = 32, size 32 bits
#                  430 ENTERED:&&
# UVM_INFO ../AHB_agent/ahb_monitor.sv(71) @ 430: uvm_test_top.env.ahb_agt_top.agnth[0].monh [ROUTER_WR_MONITOR] printing from monitor 
#  ---------------------------------------
# Name         Type      Size  Value     
# ---------------------------------------
# mon_data     ahb_xtn   -     @1222     
#   Hresetn    integral  1     'd0       
#   Hwrite     integral  1     1         
#   Htrans     integral  2     3         
#   Hburst     integral  3     'h4       
#   Hsize      integral  3     'd2       
#   Haddr      integral  32    'h8c00025c
#   Hwdata     integral  32    'h4dc1075 
#   Hrdata     integral  32    'h0       
#   Hreadyin   integral  1     'd0       
#   Hreadyout  integral  1     'd0       
#   length     integral  10    'h0       
# ---------------------------------------
# 
# UVM_INFO ../tb/ahb2apb_sb.sv(109) @ 430: uvm_test_top.env.sb [WRITE SB] DATA FROM MASTER SCOREBOARD
# ---------------------------------------
# Name         Type      Size  Value     
# ---------------------------------------
# mon_data     ahb_xtn   -     @1222     
#   Hresetn    integral  1     'd0       
#   Hwrite     integral  1     1         
#   Htrans     integral  2     3         
#   Hburst     integral  3     'h4       
#   Hsize      integral  3     'd2       
#   Haddr      integral  32    'h8c00025c
#   Hwdata     integral  32    'h4dc1075 
#   Hrdata     integral  32    'h0       
#   Hreadyin   integral  1     'd0       
#   Hreadyout  integral  1     'd0       
#   length     integral  10    'h0       
# ---------------------------------------
#                  450 ENTERED:&&
# UVM_INFO ../APB_agent/apb_monitor.sv(80) @ 450: uvm_test_top.env.apb_agt_top.agnth[0].monh [ROUTER_RD_MONITOR] printing from monitor 
#  -------------------------------------
# Name       Type      Size  Value     
# -------------------------------------
# mon_data   apb_xtn   -     @1226     
#   Paddr    integral  32    'h8c00025c
#   Penable  integral  1     'd0       
#   Pwrite   integral  1     1         
#   Pselx    integral  4     8         
#   Prdata   integral  32    'h0       
#   Pwdata   integral  32    'h4dc1075 
# -------------------------------------
# 
# -----------------------------------------------------------------------------------------------------
# Name                           Type      Size  Value                                                 
# -----------------------------------------------------------------------------------------------------
# req                            ahb_xtn   -     @1085                                                 
#   begin_time                   time      64    370                                                   
#   end_time                     time      64    370                                                   
#   depth                        int       32    'd2                                                   
#   parent sequence (name)       string    4     wseq                                                  
#   parent sequence (full name)  string    54    uvm_test_top.env.ahb_agt_top.agnth[0].m_sequencer.wseq
#   sequencer                    string    49    uvm_test_top.env.ahb_agt_top.agnth[0].m_sequencer     
#   Hresetn                      integral  1     'd0                                                   
#   Hwrite                       integral  1     1                                                     
#   Htrans                       integral  2     3                                                     
#   Hburst                       integral  3     'h4                                                   
#   Hsize                        integral  3     'd2                                                   
#   Haddr                        integral  32    'h8c000240                                            
#   Hwdata                       integral  32    'h8e82d869                                            
#   Hrdata                       integral  32    'h0                                                   
#   Hreadyin                     integral  1     'd0                                                   
#   Hreadyout                    integral  1     'd0                                                   
#   length                       integral  10    'h8                                                   
# -----------------------------------------------------------------------------------------------------
# UVM_INFO ../AHB_agent/ahb_driver.sv(75) @ 450: uvm_test_top.env.ahb_agt_top.agnth[0].drvh [ahb_driver] Report : AHB driver sent           6 transactions
# UVM_INFO ../tb/ahb2apb_sb.sv(121) @ 450: uvm_test_top.env.sb [DATA FROM SLAVE SCORBOARD] read data
# -------------------------------------
# Name       Type      Size  Value     
# -------------------------------------
# mon_data   apb_xtn   -     @1226     
#   Paddr    integral  32    'h8c00025c
#   Penable  integral  1     'd0       
#   Pwrite   integral  1     1         
#   Pselx    integral  4     8         
#   Prdata   integral  32    'h0       
#   Pwdata   integral  32    'h4dc1075 
# -------------------------------------
# i am in scorrboard
# UVM_INFO ../tb/ahb2apb_sb.sv(189) @ 450: uvm_test_top.env.sb [SB] ADDR MATCHED SUCCESSFULLY
# UVM_INFO ../tb/ahb2apb_sb.sv(196) @ 450: uvm_test_top.env.sb [SB] WRITE DATA MATCHED SUCCESSFULLY
# UVM_INFO ../AHB_agent/ahb_driver.sv(50) @ 450: uvm_test_top.env.ahb_agt_top.agnth[0].drvh [AHB_DRIVER] printing from driver 
#  -----------------------------------------------------------------------------------------------------
# Name                           Type      Size  Value                                                 
# -----------------------------------------------------------------------------------------------------
# req                            ahb_xtn   -     @1085                                                 
#   begin_time                   time      64    450                                                   
#   end_time                     time      64    450                                                   
#   depth                        int       32    'd2                                                   
#   parent sequence (name)       string    4     wseq                                                  
#   parent sequence (full name)  string    54    uvm_test_top.env.ahb_agt_top.agnth[0].m_sequencer.wseq
#   sequencer                    string    49    uvm_test_top.env.ahb_agt_top.agnth[0].m_sequencer     
#   Hresetn                      integral  1     'd0                                                   
#   Hwrite                       integral  1     1                                                     
#   Htrans                       integral  2     3                                                     
#   Hburst                       integral  3     'h4                                                   
#   Hsize                        integral  3     'd2                                                   
#   Haddr                        integral  32    'h8c000244                                            
#   Hwdata                       integral  32    'hdfd49284                                            
#   Hrdata                       integral  32    'h0                                                   
#   Hreadyin                     integral  1     'd0                                                   
#   Hreadyout                    integral  1     'd0                                                   
#   length                       integral  10    'h8                                                   
# -----------------------------------------------------------------------------------------------------
# 
# Width = 32, size 32 bits
#                  470 ENTERED:&&
# UVM_INFO ../AHB_agent/ahb_monitor.sv(71) @ 470: uvm_test_top.env.ahb_agt_top.agnth[0].monh [ROUTER_WR_MONITOR] printing from monitor 
#  ---------------------------------------
# Name         Type      Size  Value     
# ---------------------------------------
# mon_data     ahb_xtn   -     @1230     
#   Hresetn    integral  1     'd0       
#   Hwrite     integral  1     1         
#   Htrans     integral  2     3         
#   Hburst     integral  3     'h4       
#   Hsize      integral  3     'd2       
#   Haddr      integral  32    'h8c000240
#   Hwdata     integral  32    'h8e82d869
#   Hrdata     integral  32    'h0       
#   Hreadyin   integral  1     'd0       
#   Hreadyout  integral  1     'd0       
#   length     integral  10    'h0       
# ---------------------------------------
# 
# UVM_INFO ../tb/ahb2apb_sb.sv(109) @ 470: uvm_test_top.env.sb [WRITE SB] DATA FROM MASTER SCOREBOARD
# ---------------------------------------
# Name         Type      Size  Value     
# ---------------------------------------
# mon_data     ahb_xtn   -     @1230     
#   Hresetn    integral  1     'd0       
#   Hwrite     integral  1     1         
#   Htrans     integral  2     3         
#   Hburst     integral  3     'h4       
#   Hsize      integral  3     'd2       
#   Haddr      integral  32    'h8c000240
#   Hwdata     integral  32    'h8e82d869
#   Hrdata     integral  32    'h0       
#   Hreadyin   integral  1     'd0       
#   Hreadyout  integral  1     'd0       
#   length     integral  10    'h0       
# ---------------------------------------
#                  490 ENTERED:&&
# UVM_INFO ../APB_agent/apb_monitor.sv(80) @ 490: uvm_test_top.env.apb_agt_top.agnth[0].monh [ROUTER_RD_MONITOR] printing from monitor 
#  -------------------------------------
# Name       Type      Size  Value     
# -------------------------------------
# mon_data   apb_xtn   -     @1234     
#   Paddr    integral  32    'h8c000240
#   Penable  integral  1     'd0       
#   Pwrite   integral  1     1         
#   Pselx    integral  4     8         
#   Prdata   integral  32    'h0       
#   Pwdata   integral  32    'h4dc1075 
# -------------------------------------
# 
# UVM_INFO ../tb/ahb2apb_sb.sv(121) @ 490: uvm_test_top.env.sb [DATA FROM SLAVE SCORBOARD] read data
# -------------------------------------
# Name       Type      Size  Value     
# -------------------------------------
# mon_data   apb_xtn   -     @1234     
#   Paddr    integral  32    'h8c000240
#   Penable  integral  1     'd0       
#   Pwrite   integral  1     1         
#   Pselx    integral  4     8         
#   Prdata   integral  32    'h0       
#   Pwdata   integral  32    'h4dc1075 
# -------------------------------------
# i am in scorrboard
# UVM_INFO ../tb/ahb2apb_sb.sv(189) @ 490: uvm_test_top.env.sb [SB] ADDR MATCHED SUCCESSFULLY
# UVM_ERROR ../tb/ahb2apb_sb.sv(198) @ 490: uvm_test_top.env.sb [SB] WRITE DATA MATCHING FAILED
# Width = 32, size 32 bits
#                  510 ENTERED:&&
# UVM_INFO ../AHB_agent/ahb_monitor.sv(71) @ 510: uvm_test_top.env.ahb_agt_top.agnth[0].monh [ROUTER_WR_MONITOR] printing from monitor 
#  ---------------------------------------
# Name         Type      Size  Value     
# ---------------------------------------
# mon_data     ahb_xtn   -     @1238     
#   Hresetn    integral  1     'd0       
#   Hwrite     integral  1     1         
#   Htrans     integral  2     3         
#   Hburst     integral  3     'h4       
#   Hsize      integral  3     'd2       
#   Haddr      integral  32    'h8c000240
#   Hwdata     integral  32    'h8e82d869
#   Hrdata     integral  32    'h0       
#   Hreadyin   integral  1     'd0       
#   Hreadyout  integral  1     'd0       
#   length     integral  10    'h0       
# ---------------------------------------
# 
# UVM_INFO ../tb/ahb2apb_sb.sv(109) @ 510: uvm_test_top.env.sb [WRITE SB] DATA FROM MASTER SCOREBOARD
# ---------------------------------------
# Name         Type      Size  Value     
# ---------------------------------------
# mon_data     ahb_xtn   -     @1238     
#   Hresetn    integral  1     'd0       
#   Hwrite     integral  1     1         
#   Htrans     integral  2     3         
#   Hburst     integral  3     'h4       
#   Hsize      integral  3     'd2       
#   Haddr      integral  32    'h8c000240
#   Hwdata     integral  32    'h8e82d869
#   Hrdata     integral  32    'h0       
#   Hreadyin   integral  1     'd0       
#   Hreadyout  integral  1     'd0       
#   length     integral  10    'h0       
# ---------------------------------------
#                  530 ENTERED:&&
# UVM_INFO ../APB_agent/apb_monitor.sv(80) @ 530: uvm_test_top.env.apb_agt_top.agnth[0].monh [ROUTER_RD_MONITOR] printing from monitor 
#  -------------------------------------
# Name       Type      Size  Value     
# -------------------------------------
# mon_data   apb_xtn   -     @1242     
#   Paddr    integral  32    'h8c000240
#   Penable  integral  1     'd0       
#   Pwrite   integral  1     1         
#   Pselx    integral  4     8         
#   Prdata   integral  32    'h0       
#   Pwdata   integral  32    'h8e82d869
# -------------------------------------
# 
# -----------------------------------------------------------------------------------------------------
# Name                           Type      Size  Value                                                 
# -----------------------------------------------------------------------------------------------------
# req                            ahb_xtn   -     @1085                                                 
#   begin_time                   time      64    450                                                   
#   end_time                     time      64    450                                                   
#   depth                        int       32    'd2                                                   
#   parent sequence (name)       string    4     wseq                                                  
#   parent sequence (full name)  string    54    uvm_test_top.env.ahb_agt_top.agnth[0].m_sequencer.wseq
#   sequencer                    string    49    uvm_test_top.env.ahb_agt_top.agnth[0].m_sequencer     
#   Hresetn                      integral  1     'd0                                                   
#   Hwrite                       integral  1     1                                                     
#   Htrans                       integral  2     3                                                     
#   Hburst                       integral  3     'h4                                                   
#   Hsize                        integral  3     'd2                                                   
#   Haddr                        integral  32    'h8c000244                                            
#   Hwdata                       integral  32    'hdfd49284                                            
#   Hrdata                       integral  32    'h0                                                   
#   Hreadyin                     integral  1     'd0                                                   
#   Hreadyout                    integral  1     'd0                                                   
#   length                       integral  10    'h8                                                   
# -----------------------------------------------------------------------------------------------------
# UVM_INFO ../AHB_agent/ahb_driver.sv(75) @ 530: uvm_test_top.env.ahb_agt_top.agnth[0].drvh [ahb_driver] Report : AHB driver sent           7 transactions
# UVM_INFO ../tb/ahb2apb_sb.sv(121) @ 530: uvm_test_top.env.sb [DATA FROM SLAVE SCORBOARD] read data
# -------------------------------------
# Name       Type      Size  Value     
# -------------------------------------
# mon_data   apb_xtn   -     @1242     
#   Paddr    integral  32    'h8c000240
#   Penable  integral  1     'd0       
#   Pwrite   integral  1     1         
#   Pselx    integral  4     8         
#   Prdata   integral  32    'h0       
#   Pwdata   integral  32    'h8e82d869
# -------------------------------------
# i am in scorrboard
# UVM_INFO ../tb/ahb2apb_sb.sv(189) @ 530: uvm_test_top.env.sb [SB] ADDR MATCHED SUCCESSFULLY
# UVM_INFO ../tb/ahb2apb_sb.sv(196) @ 530: uvm_test_top.env.sb [SB] WRITE DATA MATCHED SUCCESSFULLY
# UVM_INFO ../AHB_agent/ahb_driver.sv(50) @ 530: uvm_test_top.env.ahb_agt_top.agnth[0].drvh [AHB_DRIVER] printing from driver 
#  -----------------------------------------------------------------------------------------------------
# Name                           Type      Size  Value                                                 
# -----------------------------------------------------------------------------------------------------
# req                            ahb_xtn   -     @1085                                                 
#   begin_time                   time      64    530                                                   
#   end_time                     time      64    530                                                   
#   depth                        int       32    'd2                                                   
#   parent sequence (name)       string    4     wseq                                                  
#   parent sequence (full name)  string    54    uvm_test_top.env.ahb_agt_top.agnth[0].m_sequencer.wseq
#   sequencer                    string    49    uvm_test_top.env.ahb_agt_top.agnth[0].m_sequencer     
#   Hresetn                      integral  1     'd0                                                   
#   Hwrite                       integral  1     1                                                     
#   Htrans                       integral  2     3                                                     
#   Hburst                       integral  3     'h4                                                   
#   Hsize                        integral  3     'd2                                                   
#   Haddr                        integral  32    'h8c000248                                            
#   Hwdata                       integral  32    'hd3fefd68                                            
#   Hrdata                       integral  32    'h0                                                   
#   Hreadyin                     integral  1     'd0                                                   
#   Hreadyout                    integral  1     'd0                                                   
#   length                       integral  10    'h8                                                   
# -----------------------------------------------------------------------------------------------------
# 
# Width = 32, size 32 bits
#                  550 ENTERED:&&
# UVM_INFO ../AHB_agent/ahb_monitor.sv(71) @ 550: uvm_test_top.env.ahb_agt_top.agnth[0].monh [ROUTER_WR_MONITOR] printing from monitor 
#  ---------------------------------------
# Name         Type      Size  Value     
# ---------------------------------------
# mon_data     ahb_xtn   -     @1246     
#   Hresetn    integral  1     'd0       
#   Hwrite     integral  1     1         
#   Htrans     integral  2     3         
#   Hburst     integral  3     'h4       
#   Hsize      integral  3     'd2       
#   Haddr      integral  32    'h8c000244
#   Hwdata     integral  32    'hdfd49284
#   Hrdata     integral  32    'h0       
#   Hreadyin   integral  1     'd0       
#   Hreadyout  integral  1     'd0       
#   length     integral  10    'h0       
# ---------------------------------------
# 
# UVM_INFO ../tb/ahb2apb_sb.sv(109) @ 550: uvm_test_top.env.sb [WRITE SB] DATA FROM MASTER SCOREBOARD
# ---------------------------------------
# Name         Type      Size  Value     
# ---------------------------------------
# mon_data     ahb_xtn   -     @1246     
#   Hresetn    integral  1     'd0       
#   Hwrite     integral  1     1         
#   Htrans     integral  2     3         
#   Hburst     integral  3     'h4       
#   Hsize      integral  3     'd2       
#   Haddr      integral  32    'h8c000244
#   Hwdata     integral  32    'hdfd49284
#   Hrdata     integral  32    'h0       
#   Hreadyin   integral  1     'd0       
#   Hreadyout  integral  1     'd0       
#   length     integral  10    'h0       
# ---------------------------------------
#                  570 ENTERED:&&
# UVM_INFO ../APB_agent/apb_monitor.sv(80) @ 570: uvm_test_top.env.apb_agt_top.agnth[0].monh [ROUTER_RD_MONITOR] printing from monitor 
#  -------------------------------------
# Name       Type      Size  Value     
# -------------------------------------
# mon_data   apb_xtn   -     @1250     
#   Paddr    integral  32    'h8c000244
#   Penable  integral  1     'd0       
#   Pwrite   integral  1     1         
#   Pselx    integral  4     8         
#   Prdata   integral  32    'h0       
#   Pwdata   integral  32    'h8e82d869
# -------------------------------------
# 
# UVM_INFO ../tb/ahb2apb_sb.sv(121) @ 570: uvm_test_top.env.sb [DATA FROM SLAVE SCORBOARD] read data
# -------------------------------------
# Name       Type      Size  Value     
# -------------------------------------
# mon_data   apb_xtn   -     @1250     
#   Paddr    integral  32    'h8c000244
#   Penable  integral  1     'd0       
#   Pwrite   integral  1     1         
#   Pselx    integral  4     8         
#   Prdata   integral  32    'h0       
#   Pwdata   integral  32    'h8e82d869
# -------------------------------------
# i am in scorrboard
# UVM_INFO ../tb/ahb2apb_sb.sv(189) @ 570: uvm_test_top.env.sb [SB] ADDR MATCHED SUCCESSFULLY
# UVM_ERROR ../tb/ahb2apb_sb.sv(198) @ 570: uvm_test_top.env.sb [SB] WRITE DATA MATCHING FAILED
# Width = 32, size 32 bits
#                  590 ENTERED:&&
# UVM_INFO ../AHB_agent/ahb_monitor.sv(71) @ 590: uvm_test_top.env.ahb_agt_top.agnth[0].monh [ROUTER_WR_MONITOR] printing from monitor 
#  ---------------------------------------
# Name         Type      Size  Value     
# ---------------------------------------
# mon_data     ahb_xtn   -     @1254     
#   Hresetn    integral  1     'd0       
#   Hwrite     integral  1     1         
#   Htrans     integral  2     3         
#   Hburst     integral  3     'h4       
#   Hsize      integral  3     'd2       
#   Haddr      integral  32    'h8c000244
#   Hwdata     integral  32    'hdfd49284
#   Hrdata     integral  32    'h0       
#   Hreadyin   integral  1     'd0       
#   Hreadyout  integral  1     'd0       
#   length     integral  10    'h0       
# ---------------------------------------
# 
# UVM_INFO ../tb/ahb2apb_sb.sv(109) @ 590: uvm_test_top.env.sb [WRITE SB] DATA FROM MASTER SCOREBOARD
# ---------------------------------------
# Name         Type      Size  Value     
# ---------------------------------------
# mon_data     ahb_xtn   -     @1254     
#   Hresetn    integral  1     'd0       
#   Hwrite     integral  1     1         
#   Htrans     integral  2     3         
#   Hburst     integral  3     'h4       
#   Hsize      integral  3     'd2       
#   Haddr      integral  32    'h8c000244
#   Hwdata     integral  32    'hdfd49284
#   Hrdata     integral  32    'h0       
#   Hreadyin   integral  1     'd0       
#   Hreadyout  integral  1     'd0       
#   length     integral  10    'h0       
# ---------------------------------------
#                  610 ENTERED:&&
# UVM_INFO ../APB_agent/apb_monitor.sv(80) @ 610: uvm_test_top.env.apb_agt_top.agnth[0].monh [ROUTER_RD_MONITOR] printing from monitor 
#  -------------------------------------
# Name       Type      Size  Value     
# -------------------------------------
# mon_data   apb_xtn   -     @1258     
#   Paddr    integral  32    'h8c000244
#   Penable  integral  1     'd0       
#   Pwrite   integral  1     1         
#   Pselx    integral  4     8         
#   Prdata   integral  32    'h0       
#   Pwdata   integral  32    'hdfd49284
# -------------------------------------
# 
# -----------------------------------------------------------------------------------------------------
# Name                           Type      Size  Value                                                 
# -----------------------------------------------------------------------------------------------------
# req                            ahb_xtn   -     @1085                                                 
#   begin_time                   time      64    530                                                   
#   end_time                     time      64    530                                                   
#   depth                        int       32    'd2                                                   
#   parent sequence (name)       string    4     wseq                                                  
#   parent sequence (full name)  string    54    uvm_test_top.env.ahb_agt_top.agnth[0].m_sequencer.wseq
#   sequencer                    string    49    uvm_test_top.env.ahb_agt_top.agnth[0].m_sequencer     
#   Hresetn                      integral  1     'd0                                                   
#   Hwrite                       integral  1     1                                                     
#   Htrans                       integral  2     3                                                     
#   Hburst                       integral  3     'h4                                                   
#   Hsize                        integral  3     'd2                                                   
#   Haddr                        integral  32    'h8c000248                                            
#   Hwdata                       integral  32    'hd3fefd68                                            
#   Hrdata                       integral  32    'h0                                                   
#   Hreadyin                     integral  1     'd0                                                   
#   Hreadyout                    integral  1     'd0                                                   
#   length                       integral  10    'h8                                                   
# -----------------------------------------------------------------------------------------------------
# UVM_INFO ../AHB_agent/ahb_driver.sv(75) @ 610: uvm_test_top.env.ahb_agt_top.agnth[0].drvh [ahb_driver] Report : AHB driver sent           8 transactions
# UVM_INFO ../tb/ahb2apb_sb.sv(121) @ 610: uvm_test_top.env.sb [DATA FROM SLAVE SCORBOARD] read data
# -------------------------------------
# Name       Type      Size  Value     
# -------------------------------------
# mon_data   apb_xtn   -     @1258     
#   Paddr    integral  32    'h8c000244
#   Penable  integral  1     'd0       
#   Pwrite   integral  1     1         
#   Pselx    integral  4     8         
#   Prdata   integral  32    'h0       
#   Pwdata   integral  32    'hdfd49284
# -------------------------------------
# i am in scorrboard
# UVM_INFO ../tb/ahb2apb_sb.sv(189) @ 610: uvm_test_top.env.sb [SB] ADDR MATCHED SUCCESSFULLY
# UVM_INFO ../tb/ahb2apb_sb.sv(196) @ 610: uvm_test_top.env.sb [SB] WRITE DATA MATCHED SUCCESSFULLY
# Width = 32, size 32 bits
#                  630 ENTERED:&&
# UVM_INFO ../AHB_agent/ahb_monitor.sv(71) @ 630: uvm_test_top.env.ahb_agt_top.agnth[0].monh [ROUTER_WR_MONITOR] printing from monitor 
#  ---------------------------------------
# Name         Type      Size  Value     
# ---------------------------------------
# mon_data     ahb_xtn   -     @1262     
#   Hresetn    integral  1     'd0       
#   Hwrite     integral  1     1         
#   Htrans     integral  2     3         
#   Hburst     integral  3     'h4       
#   Hsize      integral  3     'd2       
#   Haddr      integral  32    'h8c000248
#   Hwdata     integral  32    'hd3fefd68
#   Hrdata     integral  32    'h0       
#   Hreadyin   integral  1     'd0       
#   Hreadyout  integral  1     'd0       
#   length     integral  10    'h0       
# ---------------------------------------
# 
# UVM_INFO ../tb/ahb2apb_sb.sv(109) @ 630: uvm_test_top.env.sb [WRITE SB] DATA FROM MASTER SCOREBOARD
# ---------------------------------------
# Name         Type      Size  Value     
# ---------------------------------------
# mon_data     ahb_xtn   -     @1262     
#   Hresetn    integral  1     'd0       
#   Hwrite     integral  1     1         
#   Htrans     integral  2     3         
#   Hburst     integral  3     'h4       
#   Hsize      integral  3     'd2       
#   Haddr      integral  32    'h8c000248
#   Hwdata     integral  32    'hd3fefd68
#   Hrdata     integral  32    'h0       
#   Hreadyin   integral  1     'd0       
#   Hreadyout  integral  1     'd0       
#   length     integral  10    'h0       
# ---------------------------------------
#                  650 ENTERED:&&
# UVM_INFO ../APB_agent/apb_monitor.sv(80) @ 650: uvm_test_top.env.apb_agt_top.agnth[0].monh [ROUTER_RD_MONITOR] printing from monitor 
#  -------------------------------------
# Name       Type      Size  Value     
# -------------------------------------
# mon_data   apb_xtn   -     @1266     
#   Paddr    integral  32    'h8c000248
#   Penable  integral  1     'd0       
#   Pwrite   integral  1     1         
#   Pselx    integral  4     8         
#   Prdata   integral  32    'h0       
#   Pwdata   integral  32    'hdfd49284
# -------------------------------------
# 
# UVM_INFO ../tb/ahb2apb_sb.sv(121) @ 650: uvm_test_top.env.sb [DATA FROM SLAVE SCORBOARD] read data
# -------------------------------------
# Name       Type      Size  Value     
# -------------------------------------
# mon_data   apb_xtn   -     @1266     
#   Paddr    integral  32    'h8c000248
#   Penable  integral  1     'd0       
#   Pwrite   integral  1     1         
#   Pselx    integral  4     8         
#   Prdata   integral  32    'h0       
#   Pwdata   integral  32    'hdfd49284
# -------------------------------------
# i am in scorrboard
# UVM_INFO ../tb/ahb2apb_sb.sv(189) @ 650: uvm_test_top.env.sb [SB] ADDR MATCHED SUCCESSFULLY
# UVM_ERROR ../tb/ahb2apb_sb.sv(198) @ 650: uvm_test_top.env.sb [SB] WRITE DATA MATCHING FAILED
# Width = 32, size 32 bits
#                  670 ENTERED:&&
# UVM_INFO ../AHB_agent/ahb_monitor.sv(71) @ 670: uvm_test_top.env.ahb_agt_top.agnth[0].monh [ROUTER_WR_MONITOR] printing from monitor 
#  ---------------------------------------
# Name         Type      Size  Value     
# ---------------------------------------
# mon_data     ahb_xtn   -     @1270     
#   Hresetn    integral  1     'd0       
#   Hwrite     integral  1     1         
#   Htrans     integral  2     3         
#   Hburst     integral  3     'h4       
#   Hsize      integral  3     'd2       
#   Haddr      integral  32    'h8c000248
#   Hwdata     integral  32    'hd3fefd68
#   Hrdata     integral  32    'h0       
#   Hreadyin   integral  1     'd0       
#   Hreadyout  integral  1     'd0       
#   length     integral  10    'h0       
# ---------------------------------------
# 
# UVM_INFO ../tb/ahb2apb_sb.sv(109) @ 670: uvm_test_top.env.sb [WRITE SB] DATA FROM MASTER SCOREBOARD
# ---------------------------------------
# Name         Type      Size  Value     
# ---------------------------------------
# mon_data     ahb_xtn   -     @1270     
#   Hresetn    integral  1     'd0       
#   Hwrite     integral  1     1         
#   Htrans     integral  2     3         
#   Hburst     integral  3     'h4       
#   Hsize      integral  3     'd2       
#   Haddr      integral  32    'h8c000248
#   Hwdata     integral  32    'hd3fefd68
#   Hrdata     integral  32    'h0       
#   Hreadyin   integral  1     'd0       
#   Hreadyout  integral  1     'd0       
#   length     integral  10    'h0       
# ---------------------------------------
#                  690 ENTERED:&&
# UVM_INFO ../APB_agent/apb_monitor.sv(80) @ 690: uvm_test_top.env.apb_agt_top.agnth[0].monh [ROUTER_RD_MONITOR] printing from monitor 
#  -------------------------------------
# Name       Type      Size  Value     
# -------------------------------------
# mon_data   apb_xtn   -     @1274     
#   Paddr    integral  32    'h8c000248
#   Penable  integral  1     'd0       
#   Pwrite   integral  1     1         
#   Pselx    integral  4     8         
#   Prdata   integral  32    'h0       
#   Pwdata   integral  32    'hd3fefd68
# -------------------------------------
# 
# UVM_INFO ../tb/ahb2apb_sb.sv(121) @ 690: uvm_test_top.env.sb [DATA FROM SLAVE SCORBOARD] read data
# -------------------------------------
# Name       Type      Size  Value     
# -------------------------------------
# mon_data   apb_xtn   -     @1274     
#   Paddr    integral  32    'h8c000248
#   Penable  integral  1     'd0       
#   Pwrite   integral  1     1         
#   Pselx    integral  4     8         
#   Prdata   integral  32    'h0       
#   Pwdata   integral  32    'hd3fefd68
# -------------------------------------
# i am in scorrboard
# UVM_INFO ../tb/ahb2apb_sb.sv(189) @ 690: uvm_test_top.env.sb [SB] ADDR MATCHED SUCCESSFULLY
# UVM_INFO ../tb/ahb2apb_sb.sv(196) @ 690: uvm_test_top.env.sb [SB] WRITE DATA MATCHED SUCCESSFULLY
# Width = 32, size 32 bits
# UVM_INFO verilog_src/uvm-1.1d/src/base/uvm_objection.svh(1267) @ 710: reporter [TEST_DONE] 'run' phase is ready to proceed to the 'extract' phase
#                  710 ENTERED:&&
# UVM_INFO ../APB_agent/apb_driver.sv(25) @ 710: uvm_test_top.env.apb_agt_top.agnth[0].drvh [apb_driver] Report : APB driver send 0 transactions
# UVM_INFO ../APB_agent/apb_monitor.sv(89) @ 710: uvm_test_top.env.apb_agt_top.agnth[0].monh [apb_monitor] Report : APB monitor send 15 transactions
# UVM_INFO ../tb/ahb2apb_sb.sv(213) @ 710: uvm_test_top.env.sb [ahb2apb_scoreboard] Report : Number of data verified in SB 15
# 
# --- UVM Report Summary ---
# 
# ** Report counts by severity
# UVM_INFO :  109
# UVM_WARNING :    0
# UVM_ERROR :    7
# UVM_FATAL :    0
# ** Report counts by id
# [AHB_DRIVER]     8
# [DATA FROM SLAVE SCORBOARD]    15
# [Questa UVM]     2
# [RNTST]     1
# [ROUTER_RD_MONITOR]    15
# [ROUTER_WR_MONITOR]    16
# [SB]    30
# [TEST_DONE]     1
# [UVMTOP]     1
# [WRITE SB]    16
# [ahb2apb_scoreboard]     1
# [ahb_driver]     8
# [apb_driver]     1
# [apb_monitor]     1
# ** Note: $finish    : /home/cad/eda/Questa-sim/questasim/linux/../verilog_src/uvm-1.1d/src/base/uvm_root.svh(430)
#    Time: 710 ns  Iteration: 55  Instance: /top
# Saving coverage database on exit...
# End time: 18:37:35 on Jul 02,2025, Elapsed time: 0:00:04
# Errors: 0, Warnings: 1
