# vsim -cvgperinstance -vopt -voptargs="+acc" -coverage -sva -c -do "log -r /* ; coverage save -onexit mem_cov1; run -all; exit" -wlf wave_file1.wlf -l test1.log -sv_seed random work.top "+UVM_TESTNAME=ahb_single_test" 
# Start time: 18:22:46 on Jul 02,2025
# ** Note: (vsim-3813) Design is being optimized due to module recompilation...
# ** Warning: (vopt-10587) Some optimizations are turned off because the +acc switch is in effect. This will cause your simulation to run slowly. Please use -access/-debug to maintain needed visibility.
# ** Note: (vsim-12126) Error and warning message counts have been restored: Errors=0, Warnings=1.
# //  Questa Sim
# //  Version 2022.1 linux Jan 29 2022
# //
# //  Copyright 1991-2022 Mentor Graphics Corporation
# //  All Rights Reserved.
# //
# //  QuestaSim and its associated documentation contain trade
# //  secrets and commercial or financial information that are the property of
# //  Mentor Graphics Corporation and are privileged, confidential,
# //  and exempt from disclosure under the Freedom of Information Act,
# //  5 U.S.C. Section 552. Furthermore, this information
# //  is prohibited from disclosure under the Trade Secrets Act,
# //  18 U.S.C. Section 1905.
# //
# Loading sv_std.std
# Loading work.ahb2apb_if(fast)
# Loading mtiUvm.uvm_pkg(fast)
# Loading work.ahb2apb_pkg(fast)
# Loading mtiUvm.questa_uvm_pkg(fast)
# Loading work.top(fast)
# Loading work.ahb2apb_if(fast__2)
# Loading work.ahb2apb_if(fast__3)
# Loading work.rtl_top(fast)
# Loading work.ahb(fast)
# Loading work.apb_controller(fast)
# Loading work.apb(fast)
# Loading /home/cad/eda/Questa-sim/questasim/uvm-1.1d/linux/uvm_dpi.so
# ** Warning: (vsim-8634) Code was not compiled with coverage options.
# Sv_Seed = 2210601844
# log -r /* 
#  coverage save -onexit mem_cov1
#  run -all
# ----------------------------------------------------------------
# UVM-1.1d
# (C) 2007-2013 Mentor Graphics Corporation
# (C) 2007-2013 Cadence Design Systems, Inc.
# (C) 2006-2013 Synopsys, Inc.
# (C) 2011-2013 Cypress Semiconductor Corp.
# ----------------------------------------------------------------
# 
#   ***********       IMPORTANT RELEASE NOTES         ************
# 
#   You are using a version of the UVM library that has been compiled
#   with `UVM_NO_DEPRECATED undefined.
#   See http://www.eda.org/svdb/view.php?id=3313 for more details.
# 
#   You are using a version of the UVM library that has been compiled
#   with `UVM_OBJECT_MUST_HAVE_CONSTRUCTOR undefined.
#   See http://www.eda.org/svdb/view.php?id=3770 for more details.
# 
#       (Specify +UVM_NO_RELNOTES to turn off this notice)
# 
# UVM_INFO verilog_src/questa_uvm_pkg-1.2/src/questa_uvm_pkg.sv(277) @ 0: reporter [Questa UVM] QUESTA_UVM-1.2.3
# UVM_INFO verilog_src/questa_uvm_pkg-1.2/src/questa_uvm_pkg.sv(278) @ 0: reporter [Questa UVM]  questa_uvm::init(+struct)
# UVM_INFO @ 0: reporter [RNTST] Running test ahb_single_test...
# UVM_INFO @ 0: reporter [UVMTOP] UVM testbench topology:
# --------------------------------------------------------------------
# Name                         Type                        Size  Value
# --------------------------------------------------------------------
# uvm_test_top                 ahb_single_test             -     @476 
#   env                        ahb2apb_env                 -     @492 
#     ahb_agt_top              ahb_agent_top               -     @500 
#       agnth[0]               ahb_agent                   -     @631 
#         drvh                 ahb_driver                  -     @659 
#           rsp_port           uvm_analysis_port           -     @674 
#           seq_item_port      uvm_seq_item_pull_port      -     @666 
#         m_sequencer          ahb_sequencer               -     @682 
#           rsp_export         uvm_analysis_export         -     @689 
#           seq_item_export    uvm_seq_item_pull_imp       -     @783 
#           arbitration_queue  array                       0     -    
#           lock_queue         array                       0     -    
#           num_last_reqs      integral                    32    'd1  
#           num_last_rsps      integral                    32    'd1  
#         monh                 ahb_monitor                 -     @644 
#           monitor_port       uvm_analysis_port           -     @651 
#     apb_agt_top              apb_agent_top               -     @507 
#       agnth[0]               apb_agent                   -     @799 
#         drvh                 apb_driver                  -     @827 
#           rsp_port           uvm_analysis_port           -     @842 
#           seq_item_port      uvm_seq_item_pull_port      -     @834 
#         m_sequencer          apb_sequencer               -     @850 
#           rsp_export         uvm_analysis_export         -     @857 
#           seq_item_export    uvm_seq_item_pull_imp       -     @951 
#           arbitration_queue  array                       0     -    
#           lock_queue         array                       0     -    
#           num_last_reqs      integral                    32    'd1  
#           num_last_rsps      integral                    32    'd1  
#         monh                 apb_monitor                 -     @812 
#           monitor_port       uvm_analysis_port           -     @819 
#     sb                       ahb2apb_scoreboard          -     @623 
#       fifo_ahb[0]            uvm_tlm_analysis_fifo #(T)  -     @967 
#         analysis_export      uvm_analysis_imp            -     @1006
#         get_ap               uvm_analysis_port           -     @998 
#         get_peek_export      uvm_get_peek_imp            -     @982 
#         put_ap               uvm_analysis_port           -     @990 
#         put_export           uvm_put_imp                 -     @974 
#       fifo_apb[0]            uvm_tlm_analysis_fifo #(T)  -     @1014
#         analysis_export      uvm_analysis_imp            -     @1053
#         get_ap               uvm_analysis_port           -     @1045
#         get_peek_export      uvm_get_peek_imp            -     @1029
#         put_ap               uvm_analysis_port           -     @1037
#         put_export           uvm_put_imp                 -     @1021
#     v_sequencer              ahb2apb_virtual_sequencer   -     @514 
#       rsp_export             uvm_analysis_export         -     @521 
#       seq_item_export        uvm_seq_item_pull_imp       -     @615 
#       arbitration_queue      array                       0     -    
#       lock_queue             array                       0     -    
#       num_last_reqs          integral                    32    'd1  
#       num_last_rsps          integral                    32    'd1  
# --------------------------------------------------------------------
# 
# inside DEFAULT state                  10
#                   11 ENTERED:&&
#                   11 ENTERED:&&
#                   11 ENTERED:&&
# UVM_INFO ../AHB_agent/ahb_driver.sv(50) @ 30: uvm_test_top.env.ahb_agt_top.agnth[0].drvh [AHB_DRIVER] printing from driver 
#  -----------------------------------------------------------------------------------------------------
# Name                           Type      Size  Value                                                 
# -----------------------------------------------------------------------------------------------------
# req                            ahb_xtn   -     @1085                                                 
#   begin_time                   time      64    30                                                    
#   depth                        int       32    'd2                                                   
#   parent sequence (name)       string    4     sseq                                                  
#   parent sequence (full name)  string    54    uvm_test_top.env.ahb_agt_top.agnth[0].m_sequencer.sseq
#   sequencer                    string    49    uvm_test_top.env.ahb_agt_top.agnth[0].m_sequencer     
#   Hresetn                      integral  1     'd0                                                   
#   Hwrite                       integral  1     1                                                     
#   Htrans                       integral  2     2                                                     
#   Hburst                       integral  3     'h0                                                   
#   Hsize                        integral  3     'd0                                                   
#   Haddr                        integral  32    'h880003af                                            
#   Hwdata                       integral  32    'h9b4ebce3                                            
#   Hrdata                       integral  32    'h0                                                   
#   Hreadyin                     integral  1     'd0                                                   
#   Hreadyout                    integral  1     'd0                                                   
#   length                       integral  10    'h1                                                   
# -----------------------------------------------------------------------------------------------------
# 
#                   31 ENTERED:&&
#                   50 ENTERED:&&
# Width = 32, size 8 bits
#                   70 ENTERED:&&
#                   70BYTE0_endian1
#                   70 ENTERED:&&
#                   70BYTE3_endian1
# -----------------------------------------------------------------------------------------------------
# Name                           Type      Size  Value                                                 
# -----------------------------------------------------------------------------------------------------
# req                            ahb_xtn   -     @1085                                                 
#   begin_time                   time      64    30                                                    
#   depth                        int       32    'd2                                                   
#   parent sequence (name)       string    4     sseq                                                  
#   parent sequence (full name)  string    54    uvm_test_top.env.ahb_agt_top.agnth[0].m_sequencer.sseq
#   sequencer                    string    49    uvm_test_top.env.ahb_agt_top.agnth[0].m_sequencer     
#   Hresetn                      integral  1     'd0                                                   
#   Hwrite                       integral  1     1                                                     
#   Htrans                       integral  2     2                                                     
#   Hburst                       integral  3     'h0                                                   
#   Hsize                        integral  3     'd0                                                   
#   Haddr                        integral  32    'h880003af                                            
#   Hwdata                       integral  32    'h9b4ebce3                                            
#   Hrdata                       integral  32    'h0                                                   
#   Hreadyin                     integral  1     'd0                                                   
#   Hreadyout                    integral  1     'd0                                                   
#   length                       integral  10    'h1                                                   
# -----------------------------------------------------------------------------------------------------
# UVM_INFO ../AHB_agent/ahb_driver.sv(75) @ 70: uvm_test_top.env.ahb_agt_top.agnth[0].drvh [ahb_driver] Report : AHB driver sent           1 transactions
# UVM_INFO ../AHB_agent/ahb_monitor.sv(71) @ 70: uvm_test_top.env.ahb_agt_top.agnth[0].monh [ROUTER_WR_MONITOR] printing from monitor 
#  ---------------------------------------
# Name         Type      Size  Value     
# ---------------------------------------
# mon_data     ahb_xtn   -     @1079     
#   Hresetn    integral  1     'd0       
#   Hwrite     integral  1     1         
#   Htrans     integral  2     2         
#   Hburst     integral  3     'h0       
#   Hsize      integral  3     'd0       
#   Haddr      integral  32    'h880003af
#   Hwdata     integral  32    'h9b4ebce3
#   Hrdata     integral  32    'h0       
#   Hreadyin   integral  1     'd0       
#   Hreadyout  integral  1     'd0       
#   length     integral  10    'h0       
# ---------------------------------------
# 
# UVM_INFO ../tb/ahb2apb_sb.sv(109) @ 70: uvm_test_top.env.sb [WRITE SB] DATA FROM MASTER SCOREBOARD
# ---------------------------------------
# Name         Type      Size  Value     
# ---------------------------------------
# mon_data     ahb_xtn   -     @1079     
#   Hresetn    integral  1     'd0       
#   Hwrite     integral  1     1         
#   Htrans     integral  2     2         
#   Hburst     integral  3     'h0       
#   Hsize      integral  3     'd0       
#   Haddr      integral  32    'h880003af
#   Hwdata     integral  32    'h9b4ebce3
#   Hrdata     integral  32    'h0       
#   Hreadyin   integral  1     'd0       
#   Hreadyout  integral  1     'd0       
#   length     integral  10    'h0       
# ---------------------------------------
#                   90 ENTERED:&&
# Width = 32, size 8 bits
#                  110 ENTERED:&&
#                  110BYTE3_endian1
# UVM_INFO ../AHB_agent/ahb_monitor.sv(71) @ 110: uvm_test_top.env.ahb_agt_top.agnth[0].monh [ROUTER_WR_MONITOR] printing from monitor 
#  ---------------------------------------
# Name         Type      Size  Value     
# ---------------------------------------
# mon_data     ahb_xtn   -     @1161     
#   Hresetn    integral  1     'd0       
#   Hwrite     integral  1     1         
#   Htrans     integral  2     2         
#   Hburst     integral  3     'h0       
#   Hsize      integral  3     'd0       
#   Haddr      integral  32    'h880003af
#   Hwdata     integral  32    'h9b4ebce3
#   Hrdata     integral  32    'h0       
#   Hreadyin   integral  1     'd0       
#   Hreadyout  integral  1     'd0       
#   length     integral  10    'h0       
# ---------------------------------------
# 
# UVM_INFO ../tb/ahb2apb_sb.sv(109) @ 110: uvm_test_top.env.sb [WRITE SB] DATA FROM MASTER SCOREBOARD
# ---------------------------------------
# Name         Type      Size  Value     
# ---------------------------------------
# mon_data     ahb_xtn   -     @1161     
#   Hresetn    integral  1     'd0       
#   Hwrite     integral  1     1         
#   Htrans     integral  2     2         
#   Hburst     integral  3     'h0       
#   Hsize      integral  3     'd0       
#   Haddr      integral  32    'h880003af
#   Hwdata     integral  32    'h9b4ebce3
#   Hrdata     integral  32    'h0       
#   Hreadyin   integral  1     'd0       
#   Hreadyout  integral  1     'd0       
#   length     integral  10    'h0       
# ---------------------------------------
#                  130 ENTERED:&&
# UVM_INFO ../APB_agent/apb_monitor.sv(80) @ 130: uvm_test_top.env.apb_agt_top.agnth[0].monh [ROUTER_RD_MONITOR] printing from monitor 
#  -------------------------------------
# Name       Type      Size  Value     
# -------------------------------------
# mon_data   apb_xtn   -     @1073     
#   Paddr    integral  32    'h880003af
#   Penable  integral  1     'd0       
#   Pwrite   integral  1     1         
#   Pselx    integral  4     'd4       
#   Prdata   integral  32    'h0       
#   Pwdata   integral  32    'h9b      
# -------------------------------------
# 
# UVM_INFO ../tb/ahb2apb_sb.sv(121) @ 130: uvm_test_top.env.sb [DATA FROM SLAVE SCORBOARD] read data
# -------------------------------------
# Name       Type      Size  Value     
# -------------------------------------
# mon_data   apb_xtn   -     @1073     
#   Paddr    integral  32    'h880003af
#   Penable  integral  1     'd0       
#   Pwrite   integral  1     1         
#   Pselx    integral  4     'd4       
#   Prdata   integral  32    'h0       
#   Pwdata   integral  32    'h9b      
# -------------------------------------
# i am in scorrboard
# UVM_INFO ../tb/ahb2apb_sb.sv(189) @ 130: uvm_test_top.env.sb [SB] ADDR MATCHED SUCCESSFULLY
# UVM_INFO ../tb/ahb2apb_sb.sv(196) @ 130: uvm_test_top.env.sb [SB] WRITE DATA MATCHED SUCCESSFULLY
# Width = 32, size 8 bits
#                  150 ENTERED:&&
#                  150BYTE3_endian1
# UVM_INFO ../AHB_agent/ahb_monitor.sv(71) @ 150: uvm_test_top.env.ahb_agt_top.agnth[0].monh [ROUTER_WR_MONITOR] printing from monitor 
#  ---------------------------------------
# Name         Type      Size  Value     
# ---------------------------------------
# mon_data     ahb_xtn   -     @1166     
#   Hresetn    integral  1     'd0       
#   Hwrite     integral  1     1         
#   Htrans     integral  2     2         
#   Hburst     integral  3     'h0       
#   Hsize      integral  3     'd0       
#   Haddr      integral  32    'h880003af
#   Hwdata     integral  32    'h9b4ebce3
#   Hrdata     integral  32    'h0       
#   Hreadyin   integral  1     'd0       
#   Hreadyout  integral  1     'd0       
#   length     integral  10    'h0       
# ---------------------------------------
# 
# UVM_INFO ../tb/ahb2apb_sb.sv(109) @ 150: uvm_test_top.env.sb [WRITE SB] DATA FROM MASTER SCOREBOARD
# ---------------------------------------
# Name         Type      Size  Value     
# ---------------------------------------
# mon_data     ahb_xtn   -     @1166     
#   Hresetn    integral  1     'd0       
#   Hwrite     integral  1     1         
#   Htrans     integral  2     2         
#   Hburst     integral  3     'h0       
#   Hsize      integral  3     'd0       
#   Haddr      integral  32    'h880003af
#   Hwdata     integral  32    'h9b4ebce3
#   Hrdata     integral  32    'h0       
#   Hreadyin   integral  1     'd0       
#   Hreadyout  integral  1     'd0       
#   length     integral  10    'h0       
# ---------------------------------------
# UVM_INFO verilog_src/uvm-1.1d/src/base/uvm_objection.svh(1267) @ 170: reporter [TEST_DONE] 'run' phase is ready to proceed to the 'extract' phase
#                  170 ENTERED:&&
# UVM_INFO ../APB_agent/apb_driver.sv(25) @ 170: uvm_test_top.env.apb_agt_top.agnth[0].drvh [apb_driver] Report : APB driver send 0 transactions
# UVM_INFO ../APB_agent/apb_monitor.sv(89) @ 170: uvm_test_top.env.apb_agt_top.agnth[0].monh [apb_monitor] Report : APB monitor send 1 transactions
# UVM_INFO ../tb/ahb2apb_sb.sv(213) @ 170: uvm_test_top.env.sb [ahb2apb_scoreboard] Report : Number of data verified in SB 1
# 
# --- UVM Report Summary ---
# 
# ** Report counts by severity
# UVM_INFO :   20
# UVM_WARNING :    0
# UVM_ERROR :    0
# UVM_FATAL :    0
# ** Report counts by id
# [AHB_DRIVER]     1
# [DATA FROM SLAVE SCORBOARD]     1
# [Questa UVM]     2
# [RNTST]     1
# [ROUTER_RD_MONITOR]     1
# [ROUTER_WR_MONITOR]     3
# [SB]     2
# [TEST_DONE]     1
# [UVMTOP]     1
# [WRITE SB]     3
# [ahb2apb_scoreboard]     1
# [ahb_driver]     1
# [apb_driver]     1
# [apb_monitor]     1
# ** Note: $finish    : /home/cad/eda/Questa-sim/questasim/linux/../verilog_src/uvm-1.1d/src/base/uvm_root.svh(430)
#    Time: 170 ns  Iteration: 55  Instance: /top
# Saving coverage database on exit...
# End time: 18:23:00 on Jul 02,2025, Elapsed time: 0:00:14
# Errors: 0, Warnings: 2
